!Keysight   Technologies    E5080A  MY55200964  A.12.55.09
!Correction:    S11(Full    2   Port(1  2))
!S21(Full   2   Port(1  2))
!S12(Full   2   Port(1  2))
!S22(Full   2   Port(1  2))
!S2P    File:   Measurements:   S11 S21 S12 S22:
#   Hz  S   dB  R   50
    100524.90   -20.00    0.00    -49.97665    0.00    -20.00    0.00    -20.00    0.00 
    201049.80   -20.00    0.00    -49.95331    0.00    -20.00    0.00    -20.00    0.00 
    301574.69   -20.00    0.00    -49.92996    0.00    -20.00    0.00    -20.00    0.00 
    402099.59   -20.00    0.00    -49.90662    0.00    -20.00    0.00    -20.00    0.00 
    502624.50   -20.00    0.00    -49.88327    0.00    -20.00    0.00    -20.00    0.00 
    603149.38   -20.00    0.00    -49.85993    0.00    -20.00    0.00    -20.00    0.00 
    703674.31   -20.00    0.00    -49.83658    0.00    -20.00    0.00    -20.00    0.00 
    804199.19   -20.00    0.00    -49.81324    0.00    -20.00    0.00    -20.00    0.00 
    904724.12   -20.00    0.00    -49.78989    0.00    -20.00    0.00    -20.00    0.00 
   1005249.00   -20.00    0.00    -49.76655    0.00    -20.00    0.00    -20.00    0.00 
   1105773.88   -20.00    0.00    -49.74320    0.00    -20.00    0.00    -20.00    0.00 
   1206298.75   -20.00    0.00    -49.71986    0.00    -20.00    0.00    -20.00    0.00 
   1306823.75   -20.00    0.00    -49.69651    0.00    -20.00    0.00    -20.00    0.00 
   1407348.62   -20.00    0.00    -49.67317    0.00    -20.00    0.00    -20.00    0.00 
   1507873.50   -20.00    0.00    -49.64982    0.00    -20.00    0.00    -20.00    0.00 
   1608398.38   -20.00    0.00    -49.62648    0.00    -20.00    0.00    -20.00    0.00 
   1708923.25   -20.00    0.00    -49.60313    0.00    -20.00    0.00    -20.00    0.00 
   1809448.25   -20.00    0.00    -49.57979    0.00    -20.00    0.00    -20.00    0.00 
   1909973.25   -20.00    0.00    -49.55644    0.00    -20.00    0.00    -20.00    0.00 
   2010498.00   -20.00    0.00    -49.53310    0.00    -20.00    0.00    -20.00    0.00 
   2111022.75   -20.00    0.00    -49.50975    0.00    -20.00    0.00    -20.00    0.00 
   2211547.75   -20.00    0.00    -49.48641    0.00    -20.00    0.00    -20.00    0.00 
   2312072.75   -20.00    0.00    -49.46306    0.00    -20.00    0.00    -20.00    0.00 
   2412597.50   -20.00    0.00    -49.43972    0.00    -20.00    0.00    -20.00    0.00 
   2513122.50   -20.00    0.00    -49.41637    0.00    -20.00    0.00    -20.00    0.00 
   2613647.50   -20.00    0.00    -49.39303    0.00    -20.00    0.00    -20.00    0.00 
   2714172.50   -20.00    0.00    -49.36968    0.00    -20.00    0.00    -20.00    0.00 
   2814697.25   -20.00    0.00    -49.34634    0.00    -20.00    0.00    -20.00    0.00 
   2915222.00   -20.00    0.00    -49.32299    0.00    -20.00    0.00    -20.00    0.00 
   3015747.00   -20.00    0.00    -49.29965    0.00    -20.00    0.00    -20.00    0.00 
   3116272.00   -20.00    0.00    -49.27630    0.00    -20.00    0.00    -20.00    0.00 
   3216796.75   -20.00    0.00    -49.25296    0.00    -20.00    0.00    -20.00    0.00 
   3317321.50   -20.00    0.00    -49.22961    0.00    -20.00    0.00    -20.00    0.00 
   3417846.50   -20.00    0.00    -49.20627    0.00    -20.00    0.00    -20.00    0.00 
   3518371.50   -20.00    0.00    -49.18292    0.00    -20.00    0.00    -20.00    0.00 
   3618896.50   -20.00    0.00    -49.15958    0.00    -20.00    0.00    -20.00    0.00 
   3719421.25   -20.00    0.00    -49.13623    0.00    -20.00    0.00    -20.00    0.00 
   3819946.50   -20.00    0.00    -49.11289    0.00    -20.00    0.00    -20.00    0.00 
   3920471.25   -20.00    0.00    -49.08954    0.00    -20.00    0.00    -20.00    0.00 
   4020996.00   -20.00    0.00    -49.06620    0.00    -20.00    0.00    -20.00    0.00 
   4121520.75   -20.00    0.00    -49.04285    0.00    -20.00    0.00    -20.00    0.00 
   4222045.50   -20.00    0.00    -49.01951    0.00    -20.00    0.00    -20.00    0.00 
   4322571.00   -20.00    0.00    -48.99616    0.00    -20.00    0.00    -20.00    0.00 
   4423095.50   -20.00    0.00    -48.97282    0.00    -20.00    0.00    -20.00    0.00 
   4523620.50   -20.00    0.00    -48.94947    0.00    -20.00    0.00    -20.00    0.00 
   4624145.50   -20.00    0.00    -48.92613    0.00    -20.00    0.00    -20.00    0.00 
   4724670.50   -20.00    0.00    -48.90278    0.00    -20.00    0.00    -20.00    0.00 
   4825195.00   -20.00    0.00    -48.87944    0.00    -20.00    0.00    -20.00    0.00 
   4925720.00   -20.00    0.00    -48.85609    0.00    -20.00    0.00    -20.00    0.00 
   5026245.00   -20.00    0.00    -48.83275    0.00    -20.00    0.00    -20.00    0.00 
   5126770.00   -20.00    0.00    -48.80940    0.00    -20.00    0.00    -20.00    0.00 
   5227295.00   -20.00    0.00    -48.78606    0.00    -20.00    0.00    -20.00    0.00 
   5327819.50   -20.00    0.00    -48.76271    0.00    -20.00    0.00    -20.00    0.00 
   5428345.00   -20.00    0.00    -48.73937    0.00    -20.00    0.00    -20.00    0.00 
   5528869.50   -20.00    0.00    -48.71602    0.00    -20.00    0.00    -20.00    0.00 
   5629394.50   -20.00    0.00    -48.69268    0.00    -20.00    0.00    -20.00    0.00 
   5729919.00   -20.00    0.00    -48.66933    0.00    -20.00    0.00    -20.00    0.00 
   5830444.00   -20.00    0.00    -48.64599    0.00    -20.00    0.00    -20.00    0.00 
   5930969.00   -20.00    0.00    -48.62264    0.00    -20.00    0.00    -20.00    0.00 
   6031494.00   -20.00    0.00    -48.59930    0.00    -20.00    0.00    -20.00    0.00 
   6132019.00   -20.00    0.00    -48.57595    0.00    -20.00    0.00    -20.00    0.00 
   6232544.00   -20.00    0.00    -48.55261    0.00    -20.00    0.00    -20.00    0.00 
   6333069.00   -20.00    0.00    -48.52926    0.00    -20.00    0.00    -20.00    0.00 
   6433593.50   -20.00    0.00    -48.50592    0.00    -20.00    0.00    -20.00    0.00 
   6534118.50   -20.00    0.00    -48.48257    0.00    -20.00    0.00    -20.00    0.00 
   6634643.00   -20.00    0.00    -48.45923    0.00    -20.00    0.00    -20.00    0.00 
   6735168.00   -20.00    0.00    -48.43588    0.00    -20.00    0.00    -20.00    0.00 
   6835693.00   -20.00    0.00    -48.41254    0.00    -20.00    0.00    -20.00    0.00 
   6936218.50   -20.00    0.00    -48.38919    0.00    -20.00    0.00    -20.00    0.00 
   7036743.00   -20.00    0.00    -48.36585    0.00    -20.00    0.00    -20.00    0.00 
   7137268.00   -20.00    0.00    -48.34250    0.00    -20.00    0.00    -20.00    0.00 
   7237793.00   -20.00    0.00    -48.31916    0.00    -20.00    0.00    -20.00    0.00 
   7338317.50   -20.00    0.00    -48.29581    0.00    -20.00    0.00    -20.00    0.00 
   7438842.50   -20.00    0.00    -48.27247    0.00    -20.00    0.00    -20.00    0.00 
   7539367.00   -20.00    0.00    -48.24912    0.00    -20.00    0.00    -20.00    0.00 
   7639893.00   -20.00    0.00    -48.22578    0.00    -20.00    0.00    -20.00    0.00 
   7740417.50   -20.00    0.00    -48.20243    0.00    -20.00    0.00    -20.00    0.00 
   7840942.50   -20.00    0.00    -48.17909    0.00    -20.00    0.00    -20.00    0.00 
   7941467.00   -20.00    0.00    -48.15574    0.00    -20.00    0.00    -20.00    0.00 
   8041992.00   -20.00    0.00    -48.13240    0.00    -20.00    0.00    -20.00    0.00 
   8142517.00   -20.00    0.00    -48.10905    0.00    -20.00    0.00    -20.00    0.00 
   8243041.50   -20.00    0.00    -48.08571    0.00    -20.00    0.00    -20.00    0.00 
   8343566.50   -20.00    0.00    -48.06236    0.00    -20.00    0.00    -20.00    0.00 
   8444091.00   -20.00    0.00    -48.03902    0.00    -20.00    0.00    -20.00    0.00 
   8544617.00   -20.00    0.00    -48.01567    0.00    -20.00    0.00    -20.00    0.00 
   8645142.00   -20.00    0.00    -47.99233    0.00    -20.00    0.00    -20.00    0.00 
   8745666.00   -20.00    0.00    -47.96898    0.00    -20.00    0.00    -20.00    0.00 
   8846191.00   -20.00    0.00    -47.94564    0.00    -20.00    0.00    -20.00    0.00 
   8946716.00   -20.00    0.00    -47.92229    0.00    -20.00    0.00    -20.00    0.00 
   9047241.00   -20.00    0.00    -47.89895    0.00    -20.00    0.00    -20.00    0.00 
   9147766.00   -20.00    0.00    -47.87560    0.00    -20.00    0.00    -20.00    0.00 
   9248291.00   -20.00    0.00    -47.85226    0.00    -20.00    0.00    -20.00    0.00 
   9348816.00   -20.00    0.00    -47.82891    0.00    -20.00    0.00    -20.00    0.00 
   9449341.00   -20.00    0.00    -47.80557    0.00    -20.00    0.00    -20.00    0.00 
   9549866.00   -20.00    0.00    -47.78222    0.00    -20.00    0.00    -20.00    0.00 
   9650390.00   -20.00    0.00    -47.75888    0.00    -20.00    0.00    -20.00    0.00 
   9750915.00   -20.00    0.00    -47.73553    0.00    -20.00    0.00    -20.00    0.00 
   9851440.00   -20.00    0.00    -47.71218    0.00    -20.00    0.00    -20.00    0.00 
   9951965.00   -20.00    0.00    -47.68884    0.00    -20.00    0.00    -20.00    0.00 
  10052490.00   -20.00    0.00    -47.66549    0.00    -20.00    0.00    -20.00    0.00 
  10153015.00   -20.00    0.00    -47.64215    0.00    -20.00    0.00    -20.00    0.00 
  10253540.00   -20.00    0.00    -47.61880    0.00    -20.00    0.00    -20.00    0.00 
  10354065.00   -20.00    0.00    -47.59546    0.00    -20.00    0.00    -20.00    0.00 
  10454590.00   -20.00    0.00    -47.57211    0.00    -20.00    0.00    -20.00    0.00 
  10555114.00   -20.00    0.00    -47.54877    0.00    -20.00    0.00    -20.00    0.00 
  10655639.00   -20.00    0.00    -47.52542    0.00    -20.00    0.00    -20.00    0.00 
  10756164.00   -20.00    0.00    -47.50208    0.00    -20.00    0.00    -20.00    0.00 
  10856690.00   -20.00    0.00    -47.47873    0.00    -20.00    0.00    -20.00    0.00 
  10957214.00   -20.00    0.00    -47.45539    0.00    -20.00    0.00    -20.00    0.00 
  11057739.00   -20.00    0.00    -47.43204    0.00    -20.00    0.00    -20.00    0.00 
  11158264.00   -20.00    0.00    -47.40870    0.00    -20.00    0.00    -20.00    0.00 
  11258789.00   -20.00    0.00    -47.38535    0.00    -20.00    0.00    -20.00    0.00 
  11359314.00   -20.00    0.00    -47.36201    0.00    -20.00    0.00    -20.00    0.00 
  11459838.00   -20.00    0.00    -47.33866    0.00    -20.00    0.00    -20.00    0.00 
  11560363.00   -20.00    0.00    -47.31532    0.00    -20.00    0.00    -20.00    0.00 
  11660888.00   -20.00    0.00    -47.29197    0.00    -20.00    0.00    -20.00    0.00 
  11761414.00   -20.00    0.00    -47.26863    0.00    -20.00    0.00    -20.00    0.00 
  11861938.00   -20.00    0.00    -47.24528    0.00    -20.00    0.00    -20.00    0.00 
  11962463.00   -20.00    0.00    -47.22194    0.00    -20.00    0.00    -20.00    0.00 
  12062988.00   -20.00    0.00    -47.19859    0.00    -20.00    0.00    -20.00    0.00 
  12163513.00   -20.00    0.00    -47.17525    0.00    -20.00    0.00    -20.00    0.00 
  12264038.00   -20.00    0.00    -47.15190    0.00    -20.00    0.00    -20.00    0.00 
  12364562.00   -20.00    0.00    -47.12856    0.00    -20.00    0.00    -20.00    0.00 
  12465088.00   -20.00    0.00    -47.10521    0.00    -20.00    0.00    -20.00    0.00 
  12565613.00   -20.00    0.00    -47.08187    0.00    -20.00    0.00    -20.00    0.00 
  12666138.00   -20.00    0.00    -47.05852    0.00    -20.00    0.00    -20.00    0.00 
  12766662.00   -20.00    0.00    -47.03518    0.00    -20.00    0.00    -20.00    0.00 
  12867187.00   -20.00    0.00    -47.01183    0.00    -20.00    0.00    -20.00    0.00 
  12967712.00   -20.00    0.00    -46.98849    0.00    -20.00    0.00    -20.00    0.00 
  13068237.00   -20.00    0.00    -46.96514    0.00    -20.00    0.00    -20.00    0.00 
  13168762.00   -20.00    0.00    -46.94180    0.00    -20.00    0.00    -20.00    0.00 
  13269286.00   -20.00    0.00    -46.91845    0.00    -20.00    0.00    -20.00    0.00 
  13369812.00   -20.00    0.00    -46.89511    0.00    -20.00    0.00    -20.00    0.00 
  13470336.00   -20.00    0.00    -46.87176    0.00    -20.00    0.00    -20.00    0.00 
  13570861.00   -20.00    0.00    -46.84842    0.00    -20.00    0.00    -20.00    0.00 
  13671386.00   -20.00    0.00    -46.82507    0.00    -20.00    0.00    -20.00    0.00 
  13771912.00   -20.00    0.00    -46.80173    0.00    -20.00    0.00    -20.00    0.00 
  13872437.00   -20.00    0.00    -46.77838    0.00    -20.00    0.00    -20.00    0.00 
  13972962.00   -20.00    0.00    -46.75504    0.00    -20.00    0.00    -20.00    0.00 
  14073486.00   -20.00    0.00    -46.73169    0.00    -20.00    0.00    -20.00    0.00 
  14174011.00   -20.00    0.00    -46.70835    0.00    -20.00    0.00    -20.00    0.00 
  14274536.00   -20.00    0.00    -46.68500    0.00    -20.00    0.00    -20.00    0.00 
  14375061.00   -20.00    0.00    -46.66166    0.00    -20.00    0.00    -20.00    0.00 
  14475586.00   -20.00    0.00    -46.63831    0.00    -20.00    0.00    -20.00    0.00 
  14576110.00   -20.00    0.00    -46.61497    0.00    -20.00    0.00    -20.00    0.00 
  14676635.00   -20.00    0.00    -46.59162    0.00    -20.00    0.00    -20.00    0.00 
  14777160.00   -20.00    0.00    -46.56828    0.00    -20.00    0.00    -20.00    0.00 
  14877685.00   -20.00    0.00    -46.54493    0.00    -20.00    0.00    -20.00    0.00 
  14978210.00   -20.00    0.00    -46.52159    0.00    -20.00    0.00    -20.00    0.00 
  15078734.00   -20.00    0.00    -46.49824    0.00    -20.00    0.00    -20.00    0.00 
  15179259.00   -20.00    0.00    -46.47490    0.00    -20.00    0.00    -20.00    0.00 
  15279786.00   -20.00    0.00    -46.45155    0.00    -20.00    0.00    -20.00    0.00 
  15380310.00   -20.00    0.00    -46.42821    0.00    -20.00    0.00    -20.00    0.00 
  15480835.00   -20.00    0.00    -46.40486    0.00    -20.00    0.00    -20.00    0.00 
  15581360.00   -20.00    0.00    -46.38152    0.00    -20.00    0.00    -20.00    0.00 
  15681885.00   -20.00    0.00    -46.35817    0.00    -20.00    0.00    -20.00    0.00 
  15782410.00   -20.00    0.00    -46.33483    0.00    -20.00    0.00    -20.00    0.00 
  15882934.00   -20.00    0.00    -46.31148    0.00    -20.00    0.00    -20.00    0.00 
  15983459.00   -20.00    0.00    -46.28814    0.00    -20.00    0.00    -20.00    0.00 
  16083984.00   -20.00    0.00    -46.26479    0.00    -20.00    0.00    -20.00    0.00 
  16184509.00   -20.00    0.00    -46.24145    0.00    -20.00    0.00    -20.00    0.00 
  16285034.00   -20.00    0.00    -46.21810    0.00    -20.00    0.00    -20.00    0.00 
  16385558.00   -20.00    0.00    -46.19476    0.00    -20.00    0.00    -20.00    0.00 
  16486083.00   -20.00    0.00    -46.17141    0.00    -20.00    0.00    -20.00    0.00 
  16586608.00   -20.00    0.00    -46.14807    0.00    -20.00    0.00    -20.00    0.00 
  16687133.00   -20.00    0.00    -46.12472    0.00    -20.00    0.00    -20.00    0.00 
  16787658.00   -20.00    0.00    -46.10138    0.00    -20.00    0.00    -20.00    0.00 
  16888182.00   -20.00    0.00    -46.07803    0.00    -20.00    0.00    -20.00    0.00 
  16988708.00   -20.00    0.00    -46.05469    0.00    -20.00    0.00    -20.00    0.00 
  17089234.00   -20.00    0.00    -46.03134    0.00    -20.00    0.00    -20.00    0.00 
  17189758.00   -20.00    0.00    -46.00800    0.00    -20.00    0.00    -20.00    0.00 
  17290284.00   -20.00    0.00    -45.98465    0.00    -20.00    0.00    -20.00    0.00 
  17390808.00   -20.00    0.00    -45.96131    0.00    -20.00    0.00    -20.00    0.00 
  17491332.00   -20.00    0.00    -45.93796    0.00    -20.00    0.00    -20.00    0.00 
  17591858.00   -20.00    0.00    -45.91462    0.00    -20.00    0.00    -20.00    0.00 
  17692382.00   -20.00    0.00    -45.89127    0.00    -20.00    0.00    -20.00    0.00 
  17792908.00   -20.00    0.00    -45.86793    0.00    -20.00    0.00    -20.00    0.00 
  17893432.00   -20.00    0.00    -45.84458    0.00    -20.00    0.00    -20.00    0.00 
  17993956.00   -20.00    0.00    -45.82124    0.00    -20.00    0.00    -20.00    0.00 
  18094482.00   -20.00    0.00    -45.79789    0.00    -20.00    0.00    -20.00    0.00 
  18195006.00   -20.00    0.00    -45.77455    0.00    -20.00    0.00    -20.00    0.00 
  18295532.00   -20.00    0.00    -45.75120    0.00    -20.00    0.00    -20.00    0.00 
  18396056.00   -20.00    0.00    -45.72786    0.00    -20.00    0.00    -20.00    0.00 
  18496582.00   -20.00    0.00    -45.70451    0.00    -20.00    0.00    -20.00    0.00 
  18597108.00   -20.00    0.00    -45.68117    0.00    -20.00    0.00    -20.00    0.00 
  18697632.00   -20.00    0.00    -45.65782    0.00    -20.00    0.00    -20.00    0.00 
  18798156.00   -20.00    0.00    -45.63448    0.00    -20.00    0.00    -20.00    0.00 
  18898682.00   -20.00    0.00    -45.61113    0.00    -20.00    0.00    -20.00    0.00 
  18999206.00   -20.00    0.00    -45.58779    0.00    -20.00    0.00    -20.00    0.00 
  19099732.00   -20.00    0.00    -45.56444    0.00    -20.00    0.00    -20.00    0.00 
  19200256.00   -20.00    0.00    -45.54110    0.00    -20.00    0.00    -20.00    0.00 
  19300780.00   -20.00    0.00    -45.51775    0.00    -20.00    0.00    -20.00    0.00 
  19401306.00   -20.00    0.00    -45.49441    0.00    -20.00    0.00    -20.00    0.00 
  19501830.00   -20.00    0.00    -45.47106    0.00    -20.00    0.00    -20.00    0.00 
  19602356.00   -20.00    0.00    -45.44772    0.00    -20.00    0.00    -20.00    0.00 
  19702880.00   -20.00    0.00    -45.42437    0.00    -20.00    0.00    -20.00    0.00 
  19803404.00   -20.00    0.00    -45.40102    0.00    -20.00    0.00    -20.00    0.00 
  19903930.00   -20.00    0.00    -45.37768    0.00    -20.00    0.00    -20.00    0.00 
  20004454.00   -20.00    0.00    -45.35433    0.00    -20.00    0.00    -20.00    0.00 
  20104980.00   -20.00    0.00    -45.33099    0.00    -20.00    0.00    -20.00    0.00 
  20205506.00   -20.00    0.00    -45.30764    0.00    -20.00    0.00    -20.00    0.00 
  20306030.00   -20.00    0.00    -45.28430    0.00    -20.00    0.00    -20.00    0.00 
  20406556.00   -20.00    0.00    -45.26095    0.00    -20.00    0.00    -20.00    0.00 
  20507080.00   -20.00    0.00    -45.23761    0.00    -20.00    0.00    -20.00    0.00 
  20607604.00   -20.00    0.00    -45.21426    0.00    -20.00    0.00    -20.00    0.00 
  20708130.00   -20.00    0.00    -45.19092    0.00    -20.00    0.00    -20.00    0.00 
  20808654.00   -20.00    0.00    -45.16757    0.00    -20.00    0.00    -20.00    0.00 
  20909180.00   -20.00    0.00    -45.14423    0.00    -20.00    0.00    -20.00    0.00 
  21009704.00   -20.00    0.00    -45.12088    0.00    -20.00    0.00    -20.00    0.00 
  21110228.00   -20.00    0.00    -45.09754    0.00    -20.00    0.00    -20.00    0.00 
  21210754.00   -20.00    0.00    -45.07419    0.00    -20.00    0.00    -20.00    0.00 
  21311278.00   -20.00    0.00    -45.05085    0.00    -20.00    0.00    -20.00    0.00 
  21411804.00   -20.00    0.00    -45.02750    0.00    -20.00    0.00    -20.00    0.00 
  21512328.00   -20.00    0.00    -45.00416    0.00    -20.00    0.00    -20.00    0.00 
  21612852.00   -20.00    0.00    -44.98081    0.00    -20.00    0.00    -20.00    0.00 
  21713380.00   -20.00    0.00    -44.95747    0.00    -20.00    0.00    -20.00    0.00 
  21813904.00   -20.00    0.00    -44.93412    0.00    -20.00    0.00    -20.00    0.00 
  21914428.00   -20.00    0.00    -44.91078    0.00    -20.00    0.00    -20.00    0.00 
  22014954.00   -20.00    0.00    -44.88743    0.00    -20.00    0.00    -20.00    0.00 
  22115478.00   -20.00    0.00    -44.86409    0.00    -20.00    0.00    -20.00    0.00 
  22216004.00   -20.00    0.00    -44.84074    0.00    -20.00    0.00    -20.00    0.00 
