!Keysight   Technologies    E5080A  MY55200964  A.12.55.09
!Correction:    S11(Full    2   Port(1  2))
!S21(Full   2   Port(1  2))
!S12(Full   2   Port(1  2))
!S22(Full   2   Port(1  2))
!S2P    File:   Measurements:   S11 S21 S12 S22:
#   Hz  S   dB  R   50
    100524.90   -20.00    0.00    -49.94279    0.00    -20.00    0.00    -20.00    0.00 
    201049.80   -20.00    0.00    -49.88559    0.00    -20.00    0.00    -20.00    0.00 
    301574.69   -20.00    0.00    -49.82838    0.00    -20.00    0.00    -20.00    0.00 
    402099.59   -20.00    0.00    -49.77118    0.00    -20.00    0.00    -20.00    0.00 
    502624.50   -20.00    0.00    -49.71397    0.00    -20.00    0.00    -20.00    0.00 
    603149.38   -20.00    0.00    -49.65677    0.00    -20.00    0.00    -20.00    0.00 
    703674.31   -20.00    0.00    -49.59956    0.00    -20.00    0.00    -20.00    0.00 
    804199.19   -20.00    0.00    -49.54235    0.00    -20.00    0.00    -20.00    0.00 
    904724.12   -20.00    0.00    -49.48515    0.00    -20.00    0.00    -20.00    0.00 
   1005249.00   -20.00    0.00    -49.42794    0.00    -20.00    0.00    -20.00    0.00 
   1105773.88   -20.00    0.00    -49.37074    0.00    -20.00    0.00    -20.00    0.00 
   1206298.75   -20.00    0.00    -49.31353    0.00    -20.00    0.00    -20.00    0.00 
   1306823.75   -20.00    0.00    -49.25633    0.00    -20.00    0.00    -20.00    0.00 
   1407348.62   -20.00    0.00    -49.19912    0.00    -20.00    0.00    -20.00    0.00 
   1507873.50   -20.00    0.00    -49.14191    0.00    -20.00    0.00    -20.00    0.00 
   1608398.38   -20.00    0.00    -49.08471    0.00    -20.00    0.00    -20.00    0.00 
   1708923.25   -20.00    0.00    -49.02750    0.00    -20.00    0.00    -20.00    0.00 
   1809448.25   -20.00    0.00    -48.97030    0.00    -20.00    0.00    -20.00    0.00 
   1909973.25   -20.00    0.00    -48.91309    0.00    -20.00    0.00    -20.00    0.00 
   2010498.00   -20.00    0.00    -48.85588    0.00    -20.00    0.00    -20.00    0.00 
   2111022.75   -20.00    0.00    -48.79868    0.00    -20.00    0.00    -20.00    0.00 
   2211547.75   -20.00    0.00    -48.74147    0.00    -20.00    0.00    -20.00    0.00 
   2312072.75   -20.00    0.00    -48.68427    0.00    -20.00    0.00    -20.00    0.00 
   2412597.50   -20.00    0.00    -48.62706    0.00    -20.00    0.00    -20.00    0.00 
   2513122.50   -20.00    0.00    -48.56986    0.00    -20.00    0.00    -20.00    0.00 
   2613647.50   -20.00    0.00    -48.51265    0.00    -20.00    0.00    -20.00    0.00 
   2714172.50   -20.00    0.00    -48.45544    0.00    -20.00    0.00    -20.00    0.00 
   2814697.25   -20.00    0.00    -48.39824    0.00    -20.00    0.00    -20.00    0.00 
   2915222.00   -20.00    0.00    -48.34103    0.00    -20.00    0.00    -20.00    0.00 
   3015747.00   -20.00    0.00    -48.28383    0.00    -20.00    0.00    -20.00    0.00 
   3116272.00   -20.00    0.00    -48.22662    0.00    -20.00    0.00    -20.00    0.00 
   3216796.75   -20.00    0.00    -48.16942    0.00    -20.00    0.00    -20.00    0.00 
   3317321.50   -20.00    0.00    -48.11221    0.00    -20.00    0.00    -20.00    0.00 
   3417846.50   -20.00    0.00    -48.05500    0.00    -20.00    0.00    -20.00    0.00 
   3518371.50   -20.00    0.00    -47.99780    0.00    -20.00    0.00    -20.00    0.00 
   3618896.50   -20.00    0.00    -47.94059    0.00    -20.00    0.00    -20.00    0.00 
   3719421.25   -20.00    0.00    -47.88339    0.00    -20.00    0.00    -20.00    0.00 
   3819946.50   -20.00    0.00    -47.82618    0.00    -20.00    0.00    -20.00    0.00 
   3920471.25   -20.00    0.00    -47.76898    0.00    -20.00    0.00    -20.00    0.00 
   4020996.00   -20.00    0.00    -47.71177    0.00    -20.00    0.00    -20.00    0.00 
   4121520.75   -20.00    0.00    -47.65456    0.00    -20.00    0.00    -20.00    0.00 
   4222045.50   -20.00    0.00    -47.59736    0.00    -20.00    0.00    -20.00    0.00 
   4322571.00   -20.00    0.00    -47.54015    0.00    -20.00    0.00    -20.00    0.00 
   4423095.50   -20.00    0.00    -47.48295    0.00    -20.00    0.00    -20.00    0.00 
   4523620.50   -20.00    0.00    -47.42574    0.00    -20.00    0.00    -20.00    0.00 
   4624145.50   -20.00    0.00    -47.36853    0.00    -20.00    0.00    -20.00    0.00 
   4724670.50   -20.00    0.00    -47.31133    0.00    -20.00    0.00    -20.00    0.00 
   4825195.00   -20.00    0.00    -47.25412    0.00    -20.00    0.00    -20.00    0.00 
   4925720.00   -20.00    0.00    -47.19692    0.00    -20.00    0.00    -20.00    0.00 
   5026245.00   -20.00    0.00    -47.13971    0.00    -20.00    0.00    -20.00    0.00 
   5126770.00   -20.00    0.00    -47.08251    0.00    -20.00    0.00    -20.00    0.00 
   5227295.00   -20.00    0.00    -47.02530    0.00    -20.00    0.00    -20.00    0.00 
   5327819.50   -20.00    0.00    -46.96809    0.00    -20.00    0.00    -20.00    0.00 
   5428345.00   -20.00    0.00    -46.91089    0.00    -20.00    0.00    -20.00    0.00 
   5528869.50   -20.00    0.00    -46.85368    0.00    -20.00    0.00    -20.00    0.00 
   5629394.50   -20.00    0.00    -46.79648    0.00    -20.00    0.00    -20.00    0.00 
   5729919.00   -20.00    0.00    -46.73927    0.00    -20.00    0.00    -20.00    0.00 
   5830444.00   -20.00    0.00    -46.68207    0.00    -20.00    0.00    -20.00    0.00 
   5930969.00   -20.00    0.00    -46.62486    0.00    -20.00    0.00    -20.00    0.00 
   6031494.00   -20.00    0.00    -46.56765    0.00    -20.00    0.00    -20.00    0.00 
   6132019.00   -20.00    0.00    -46.51045    0.00    -20.00    0.00    -20.00    0.00 
   6232544.00   -20.00    0.00    -46.45324    0.00    -20.00    0.00    -20.00    0.00 
   6333069.00   -20.00    0.00    -46.39604    0.00    -20.00    0.00    -20.00    0.00 
   6433593.50   -20.00    0.00    -46.33883    0.00    -20.00    0.00    -20.00    0.00 
   6534118.50   -20.00    0.00    -46.28163    0.00    -20.00    0.00    -20.00    0.00 
   6634643.00   -20.00    0.00    -46.22442    0.00    -20.00    0.00    -20.00    0.00 
   6735168.00   -20.00    0.00    -46.16721    0.00    -20.00    0.00    -20.00    0.00 
   6835693.00   -20.00    0.00    -46.11001    0.00    -20.00    0.00    -20.00    0.00 
   6936218.50   -20.00    0.00    -46.05280    0.00    -20.00    0.00    -20.00    0.00 
   7036743.00   -20.00    0.00    -45.99560    0.00    -20.00    0.00    -20.00    0.00 
   7137268.00   -20.00    0.00    -45.93839    0.00    -20.00    0.00    -20.00    0.00 
   7237793.00   -20.00    0.00    -45.88118    0.00    -20.00    0.00    -20.00    0.00 
   7338317.50   -20.00    0.00    -45.82398    0.00    -20.00    0.00    -20.00    0.00 
   7438842.50   -20.00    0.00    -45.76677    0.00    -20.00    0.00    -20.00    0.00 
   7539367.00   -20.00    0.00    -45.70957    0.00    -20.00    0.00    -20.00    0.00 
   7639893.00   -20.00    0.00    -45.65236    0.00    -20.00    0.00    -20.00    0.00 
   7740417.50   -20.00    0.00    -45.59516    0.00    -20.00    0.00    -20.00    0.00 
   7840942.50   -20.00    0.00    -45.53795    0.00    -20.00    0.00    -20.00    0.00 
   7941467.00   -20.00    0.00    -45.48074    0.00    -20.00    0.00    -20.00    0.00 
   8041992.00   -20.00    0.00    -45.42354    0.00    -20.00    0.00    -20.00    0.00 
   8142517.00   -20.00    0.00    -45.36633    0.00    -20.00    0.00    -20.00    0.00 
   8243041.50   -20.00    0.00    -45.30913    0.00    -20.00    0.00    -20.00    0.00 
   8343566.50   -20.00    0.00    -45.25192    0.00    -20.00    0.00    -20.00    0.00 
   8444091.00   -20.00    0.00    -45.19472    0.00    -20.00    0.00    -20.00    0.00 
   8544617.00   -20.00    0.00    -45.13751    0.00    -20.00    0.00    -20.00    0.00 
   8645142.00   -20.00    0.00    -45.08030    0.00    -20.00    0.00    -20.00    0.00 
   8745666.00   -20.00    0.00    -45.02310    0.00    -20.00    0.00    -20.00    0.00 
   8846191.00   -20.00    0.00    -44.96589    0.00    -20.00    0.00    -20.00    0.00 
   8946716.00   -20.00    0.00    -44.90869    0.00    -20.00    0.00    -20.00    0.00 
   9047241.00   -20.00    0.00    -44.85148    0.00    -20.00    0.00    -20.00    0.00 
   9147766.00   -20.00    0.00    -44.79428    0.00    -20.00    0.00    -20.00    0.00 
   9248291.00   -20.00    0.00    -44.73707    0.00    -20.00    0.00    -20.00    0.00 
   9348816.00   -20.00    0.00    -44.67986    0.00    -20.00    0.00    -20.00    0.00 
   9449341.00   -20.00    0.00    -44.62266    0.00    -20.00    0.00    -20.00    0.00 
   9549866.00   -20.00    0.00    -44.56545    0.00    -20.00    0.00    -20.00    0.00 
   9650390.00   -20.00    0.00    -44.50825    0.00    -20.00    0.00    -20.00    0.00 
   9750915.00   -20.00    0.00    -44.45104    0.00    -20.00    0.00    -20.00    0.00 
   9851440.00   -20.00    0.00    -44.39383    0.00    -20.00    0.00    -20.00    0.00 
   9951965.00   -20.00    0.00    -44.33663    0.00    -20.00    0.00    -20.00    0.00 
  10052490.00   -20.00    0.00    -44.27942    0.00    -20.00    0.00    -20.00    0.00 
  10153015.00   -20.00    0.00    -44.22222    0.00    -20.00    0.00    -20.00    0.00 
  10253540.00   -20.00    0.00    -44.16501    0.00    -20.00    0.00    -20.00    0.00 
  10354065.00   -20.00    0.00    -44.10781    0.00    -20.00    0.00    -20.00    0.00 
  10454590.00   -20.00    0.00    -44.05060    0.00    -20.00    0.00    -20.00    0.00 
  10555114.00   -20.00    0.00    -43.99339    0.00    -20.00    0.00    -20.00    0.00 
  10655639.00   -20.00    0.00    -43.93619    0.00    -20.00    0.00    -20.00    0.00 
  10756164.00   -20.00    0.00    -43.87898    0.00    -20.00    0.00    -20.00    0.00 
  10856690.00   -20.00    0.00    -43.82178    0.00    -20.00    0.00    -20.00    0.00 
  10957214.00   -20.00    0.00    -43.76457    0.00    -20.00    0.00    -20.00    0.00 
  11057739.00   -20.00    0.00    -43.70737    0.00    -20.00    0.00    -20.00    0.00 
  11158264.00   -20.00    0.00    -43.65016    0.00    -20.00    0.00    -20.00    0.00 
  11258789.00   -20.00    0.00    -43.59295    0.00    -20.00    0.00    -20.00    0.00 
  11359314.00   -20.00    0.00    -43.53575    0.00    -20.00    0.00    -20.00    0.00 
  11459838.00   -20.00    0.00    -43.47854    0.00    -20.00    0.00    -20.00    0.00 
  11560363.00   -20.00    0.00    -43.42134    0.00    -20.00    0.00    -20.00    0.00 
  11660888.00   -20.00    0.00    -43.36413    0.00    -20.00    0.00    -20.00    0.00 
  11761414.00   -20.00    0.00    -43.30693    0.00    -20.00    0.00    -20.00    0.00 
  11861938.00   -20.00    0.00    -43.24972    0.00    -20.00    0.00    -20.00    0.00 
  11962463.00   -20.00    0.00    -43.19251    0.00    -20.00    0.00    -20.00    0.00 
  12062988.00   -20.00    0.00    -43.13531    0.00    -20.00    0.00    -20.00    0.00 
  12163513.00   -20.00    0.00    -43.07810    0.00    -20.00    0.00    -20.00    0.00 
  12264038.00   -20.00    0.00    -43.02090    0.00    -20.00    0.00    -20.00    0.00 
  12364562.00   -20.00    0.00    -42.96369    0.00    -20.00    0.00    -20.00    0.00 
  12465088.00   -20.00    0.00    -42.90648    0.00    -20.00    0.00    -20.00    0.00 
  12565613.00   -20.00    0.00    -42.84928    0.00    -20.00    0.00    -20.00    0.00 
  12666138.00   -20.00    0.00    -42.79207    0.00    -20.00    0.00    -20.00    0.00 
  12766662.00   -20.00    0.00    -42.73487    0.00    -20.00    0.00    -20.00    0.00 
  12867187.00   -20.00    0.00    -42.67766    0.00    -20.00    0.00    -20.00    0.00 
  12967712.00   -20.00    0.00    -42.62046    0.00    -20.00    0.00    -20.00    0.00 
  13068237.00   -20.00    0.00    -42.56325    0.00    -20.00    0.00    -20.00    0.00 
  13168762.00   -20.00    0.00    -42.50604    0.00    -20.00    0.00    -20.00    0.00 
  13269286.00   -20.00    0.00    -42.44884    0.00    -20.00    0.00    -20.00    0.00 
  13369812.00   -20.00    0.00    -42.39163    0.00    -20.00    0.00    -20.00    0.00 
  13470336.00   -20.00    0.00    -42.33443    0.00    -20.00    0.00    -20.00    0.00 
  13570861.00   -20.00    0.00    -42.27722    0.00    -20.00    0.00    -20.00    0.00 
  13671386.00   -20.00    0.00    -42.22002    0.00    -20.00    0.00    -20.00    0.00 
  13771912.00   -20.00    0.00    -42.16281    0.00    -20.00    0.00    -20.00    0.00 
  13872437.00   -20.00    0.00    -42.10560    0.00    -20.00    0.00    -20.00    0.00 
  13972962.00   -20.00    0.00    -42.04840    0.00    -20.00    0.00    -20.00    0.00 
  14073486.00   -20.00    0.00    -41.99119    0.00    -20.00    0.00    -20.00    0.00 
  14174011.00   -20.00    0.00    -41.93399    0.00    -20.00    0.00    -20.00    0.00 
  14274536.00   -20.00    0.00    -41.87678    0.00    -20.00    0.00    -20.00    0.00 
  14375061.00   -20.00    0.00    -41.81958    0.00    -20.00    0.00    -20.00    0.00 
  14475586.00   -20.00    0.00    -41.76237    0.00    -20.00    0.00    -20.00    0.00 
  14576110.00   -20.00    0.00    -41.70516    0.00    -20.00    0.00    -20.00    0.00 
  14676635.00   -20.00    0.00    -41.64796    0.00    -20.00    0.00    -20.00    0.00 
  14777160.00   -20.00    0.00    -41.59075    0.00    -20.00    0.00    -20.00    0.00 
  14877685.00   -20.00    0.00    -41.53355    0.00    -20.00    0.00    -20.00    0.00 
  14978210.00   -20.00    0.00    -41.47634    0.00    -20.00    0.00    -20.00    0.00 
  15078734.00   -20.00    0.00    -41.41913    0.00    -20.00    0.00    -20.00    0.00 
  15179259.00   -20.00    0.00    -41.36193    0.00    -20.00    0.00    -20.00    0.00 
  15279786.00   -20.00    0.00    -41.30472    0.00    -20.00    0.00    -20.00    0.00 
  15380310.00   -20.00    0.00    -41.24752    0.00    -20.00    0.00    -20.00    0.00 
  15480835.00   -20.00    0.00    -41.19031    0.00    -20.00    0.00    -20.00    0.00 
  15581360.00   -20.00    0.00    -41.13311    0.00    -20.00    0.00    -20.00    0.00 
  15681885.00   -20.00    0.00    -41.07590    0.00    -20.00    0.00    -20.00    0.00 
  15782410.00   -20.00    0.00    -41.01869    0.00    -20.00    0.00    -20.00    0.00 
  15882934.00   -20.00    0.00    -40.96149    0.00    -20.00    0.00    -20.00    0.00 
  15983459.00   -20.00    0.00    -40.90428    0.00    -20.00    0.00    -20.00    0.00 
  16083984.00   -20.00    0.00    -40.84708    0.00    -20.00    0.00    -20.00    0.00 
  16184509.00   -20.00    0.00    -40.78987    0.00    -20.00    0.00    -20.00    0.00 
  16285034.00   -20.00    0.00    -40.73267    0.00    -20.00    0.00    -20.00    0.00 
  16385558.00   -20.00    0.00    -40.67546    0.00    -20.00    0.00    -20.00    0.00 
  16486083.00   -20.00    0.00    -40.61825    0.00    -20.00    0.00    -20.00    0.00 
  16586608.00   -20.00    0.00    -40.56105    0.00    -20.00    0.00    -20.00    0.00 
  16687133.00   -20.00    0.00    -40.50384    0.00    -20.00    0.00    -20.00    0.00 
  16787658.00   -20.00    0.00    -40.44664    0.00    -20.00    0.00    -20.00    0.00 
  16888182.00   -20.00    0.00    -40.38943    0.00    -20.00    0.00    -20.00    0.00 
  16988708.00   -20.00    0.00    -40.33223    0.00    -20.00    0.00    -20.00    0.00 
  17089234.00   -20.00    0.00    -40.27502    0.00    -20.00    0.00    -20.00    0.00 
  17189758.00   -20.00    0.00    -40.21781    0.00    -20.00    0.00    -20.00    0.00 
  17290284.00   -20.00    0.00    -40.16061    0.00    -20.00    0.00    -20.00    0.00 
  17390808.00   -20.00    0.00    -40.10340    0.00    -20.00    0.00    -20.00    0.00 
  17491332.00   -20.00    0.00    -40.04620    0.00    -20.00    0.00    -20.00    0.00 
  17591858.00   -20.00    0.00    -39.98899    0.00    -20.00    0.00    -20.00    0.00 
  17692382.00   -20.00    0.00    -39.93178    0.00    -20.00    0.00    -20.00    0.00 
  17792908.00   -20.00    0.00    -39.87458    0.00    -20.00    0.00    -20.00    0.00 
  17893432.00   -20.00    0.00    -39.81737    0.00    -20.00    0.00    -20.00    0.00 
  17993956.00   -20.00    0.00    -39.76017    0.00    -20.00    0.00    -20.00    0.00 
  18094482.00   -20.00    0.00    -39.70296    0.00    -20.00    0.00    -20.00    0.00 
  18195006.00   -20.00    0.00    -39.64576    0.00    -20.00    0.00    -20.00    0.00 
  18295532.00   -20.00    0.00    -39.58855    0.00    -20.00    0.00    -20.00    0.00 
  18396056.00   -20.00    0.00    -39.53134    0.00    -20.00    0.00    -20.00    0.00 
  18496582.00   -20.00    0.00    -39.47414    0.00    -20.00    0.00    -20.00    0.00 
  18597108.00   -20.00    0.00    -39.41693    0.00    -20.00    0.00    -20.00    0.00 
  18697632.00   -20.00    0.00    -39.35973    0.00    -20.00    0.00    -20.00    0.00 
  18798156.00   -20.00    0.00    -39.30252    0.00    -20.00    0.00    -20.00    0.00 
  18898682.00   -20.00    0.00    -39.24532    0.00    -20.00    0.00    -20.00    0.00 
  18999206.00   -20.00    0.00    -39.18811    0.00    -20.00    0.00    -20.00    0.00 
  19099732.00   -20.00    0.00    -39.13090    0.00    -20.00    0.00    -20.00    0.00 
  19200256.00   -20.00    0.00    -39.07370    0.00    -20.00    0.00    -20.00    0.00 
  19300780.00   -20.00    0.00    -39.01649    0.00    -20.00    0.00    -20.00    0.00 
  19401306.00   -20.00    0.00    -38.95929    0.00    -20.00    0.00    -20.00    0.00 
  19501830.00   -20.00    0.00    -38.90208    0.00    -20.00    0.00    -20.00    0.00 
  19602356.00   -20.00    0.00    -38.84488    0.00    -20.00    0.00    -20.00    0.00 
  19702880.00   -20.00    0.00    -38.78767    0.00    -20.00    0.00    -20.00    0.00 
  19803404.00   -20.00    0.00    -38.73046    0.00    -20.00    0.00    -20.00    0.00 
  19903930.00   -20.00    0.00    -38.67326    0.00    -20.00    0.00    -20.00    0.00 
  20004454.00   -20.00    0.00    -38.61605    0.00    -20.00    0.00    -20.00    0.00 
  20104980.00   -20.00    0.00    -38.55885    0.00    -20.00    0.00    -20.00    0.00 
  20205506.00   -20.00    0.00    -38.50164    0.00    -20.00    0.00    -20.00    0.00 
  20306030.00   -20.00    0.00    -38.44443    0.00    -20.00    0.00    -20.00    0.00 
  20406556.00   -20.00    0.00    -38.38723    0.00    -20.00    0.00    -20.00    0.00 
  20507080.00   -20.00    0.00    -38.33002    0.00    -20.00    0.00    -20.00    0.00 
  20607604.00   -20.00    0.00    -38.27282    0.00    -20.00    0.00    -20.00    0.00 
  20708130.00   -20.00    0.00    -38.21561    0.00    -20.00    0.00    -20.00    0.00 
  20808654.00   -20.00    0.00    -38.15841    0.00    -20.00    0.00    -20.00    0.00 
  20909180.00   -20.00    0.00    -38.10120    0.00    -20.00    0.00    -20.00    0.00 
  21009704.00   -20.00    0.00    -38.04399    0.00    -20.00    0.00    -20.00    0.00 
  21110228.00   -20.00    0.00    -37.98679    0.00    -20.00    0.00    -20.00    0.00 
  21210754.00   -20.00    0.00    -37.92958    0.00    -20.00    0.00    -20.00    0.00 
  21311278.00   -20.00    0.00    -37.87238    0.00    -20.00    0.00    -20.00    0.00 
  21411804.00   -20.00    0.00    -37.81517    0.00    -20.00    0.00    -20.00    0.00 
  21512328.00   -20.00    0.00    -37.75797    0.00    -20.00    0.00    -20.00    0.00 
  21612852.00   -20.00    0.00    -37.70076    0.00    -20.00    0.00    -20.00    0.00 
  21713380.00   -20.00    0.00    -37.64355    0.00    -20.00    0.00    -20.00    0.00 
  21813904.00   -20.00    0.00    -37.58635    0.00    -20.00    0.00    -20.00    0.00 
  21914428.00   -20.00    0.00    -37.52914    0.00    -20.00    0.00    -20.00    0.00 
  22014954.00   -20.00    0.00    -37.47194    0.00    -20.00    0.00    -20.00    0.00 
  22115478.00   -20.00    0.00    -37.41473    0.00    -20.00    0.00    -20.00    0.00 
  22216004.00   -20.00    0.00    -37.35753    0.00    -20.00    0.00    -20.00    0.00 
