!Keysight   Technologies    E5080A  MY55200964  A.12.55.09
!Correction:    S11(Full    2   Port(1  2))
!S21(Full   2   Port(1  2))
!S12(Full   2   Port(1  2))
!S22(Full   2   Port(1  2))
!S2P    File:   Measurements:   S11 S21 S12 S22:
#   Hz  S   dB  R   50
    100524.90   -20.00    0.00    -49.92302    0.00    -20.00    0.00    -20.00    0.00 
    201049.80   -20.00    0.00    -49.84604    0.00    -20.00    0.00    -20.00    0.00 
    301574.69   -20.00    0.00    -49.76906    0.00    -20.00    0.00    -20.00    0.00 
    402099.59   -20.00    0.00    -49.69208    0.00    -20.00    0.00    -20.00    0.00 
    502624.50   -20.00    0.00    -49.61510    0.00    -20.00    0.00    -20.00    0.00 
    603149.38   -20.00    0.00    -49.53812    0.00    -20.00    0.00    -20.00    0.00 
    703674.31   -20.00    0.00    -49.46114    0.00    -20.00    0.00    -20.00    0.00 
    804199.19   -20.00    0.00    -49.38416    0.00    -20.00    0.00    -20.00    0.00 
    904724.12   -20.00    0.00    -49.30718    0.00    -20.00    0.00    -20.00    0.00 
   1005249.00   -20.00    0.00    -49.23020    0.00    -20.00    0.00    -20.00    0.00 
   1105773.88   -20.00    0.00    -49.15322    0.00    -20.00    0.00    -20.00    0.00 
   1206298.75   -20.00    0.00    -49.07624    0.00    -20.00    0.00    -20.00    0.00 
   1306823.75   -20.00    0.00    -48.99926    0.00    -20.00    0.00    -20.00    0.00 
   1407348.62   -20.00    0.00    -48.92228    0.00    -20.00    0.00    -20.00    0.00 
   1507873.50   -20.00    0.00    -48.84530    0.00    -20.00    0.00    -20.00    0.00 
   1608398.38   -20.00    0.00    -48.76832    0.00    -20.00    0.00    -20.00    0.00 
   1708923.25   -20.00    0.00    -48.69134    0.00    -20.00    0.00    -20.00    0.00 
   1809448.25   -20.00    0.00    -48.61436    0.00    -20.00    0.00    -20.00    0.00 
   1909973.25   -20.00    0.00    -48.53738    0.00    -20.00    0.00    -20.00    0.00 
   2010498.00   -20.00    0.00    -48.46040    0.00    -20.00    0.00    -20.00    0.00 
   2111022.75   -20.00    0.00    -48.38342    0.00    -20.00    0.00    -20.00    0.00 
   2211547.75   -20.00    0.00    -48.30644    0.00    -20.00    0.00    -20.00    0.00 
   2312072.75   -20.00    0.00    -48.22945    0.00    -20.00    0.00    -20.00    0.00 
   2412597.50   -20.00    0.00    -48.15247    0.00    -20.00    0.00    -20.00    0.00 
   2513122.50   -20.00    0.00    -48.07549    0.00    -20.00    0.00    -20.00    0.00 
   2613647.50   -20.00    0.00    -47.99851    0.00    -20.00    0.00    -20.00    0.00 
   2714172.50   -20.00    0.00    -47.92153    0.00    -20.00    0.00    -20.00    0.00 
   2814697.25   -20.00    0.00    -47.84455    0.00    -20.00    0.00    -20.00    0.00 
   2915222.00   -20.00    0.00    -47.76757    0.00    -20.00    0.00    -20.00    0.00 
   3015747.00   -20.00    0.00    -47.69059    0.00    -20.00    0.00    -20.00    0.00 
   3116272.00   -20.00    0.00    -47.61361    0.00    -20.00    0.00    -20.00    0.00 
   3216796.75   -20.00    0.00    -47.53663    0.00    -20.00    0.00    -20.00    0.00 
   3317321.50   -20.00    0.00    -47.45965    0.00    -20.00    0.00    -20.00    0.00 
   3417846.50   -20.00    0.00    -47.38267    0.00    -20.00    0.00    -20.00    0.00 
   3518371.50   -20.00    0.00    -47.30569    0.00    -20.00    0.00    -20.00    0.00 
   3618896.50   -20.00    0.00    -47.22871    0.00    -20.00    0.00    -20.00    0.00 
   3719421.25   -20.00    0.00    -47.15173    0.00    -20.00    0.00    -20.00    0.00 
   3819946.50   -20.00    0.00    -47.07475    0.00    -20.00    0.00    -20.00    0.00 
   3920471.25   -20.00    0.00    -46.99777    0.00    -20.00    0.00    -20.00    0.00 
   4020996.00   -20.00    0.00    -46.92079    0.00    -20.00    0.00    -20.00    0.00 
   4121520.75   -20.00    0.00    -46.84381    0.00    -20.00    0.00    -20.00    0.00 
   4222045.50   -20.00    0.00    -46.76683    0.00    -20.00    0.00    -20.00    0.00 
   4322571.00   -20.00    0.00    -46.68985    0.00    -20.00    0.00    -20.00    0.00 
   4423095.50   -20.00    0.00    -46.61287    0.00    -20.00    0.00    -20.00    0.00 
   4523620.50   -20.00    0.00    -46.53589    0.00    -20.00    0.00    -20.00    0.00 
   4624145.50   -20.00    0.00    -46.45891    0.00    -20.00    0.00    -20.00    0.00 
   4724670.50   -20.00    0.00    -46.38193    0.00    -20.00    0.00    -20.00    0.00 
   4825195.00   -20.00    0.00    -46.30495    0.00    -20.00    0.00    -20.00    0.00 
   4925720.00   -20.00    0.00    -46.22797    0.00    -20.00    0.00    -20.00    0.00 
   5026245.00   -20.00    0.00    -46.15099    0.00    -20.00    0.00    -20.00    0.00 
   5126770.00   -20.00    0.00    -46.07401    0.00    -20.00    0.00    -20.00    0.00 
   5227295.00   -20.00    0.00    -45.99703    0.00    -20.00    0.00    -20.00    0.00 
   5327819.50   -20.00    0.00    -45.92005    0.00    -20.00    0.00    -20.00    0.00 
   5428345.00   -20.00    0.00    -45.84307    0.00    -20.00    0.00    -20.00    0.00 
   5528869.50   -20.00    0.00    -45.76609    0.00    -20.00    0.00    -20.00    0.00 
   5629394.50   -20.00    0.00    -45.68911    0.00    -20.00    0.00    -20.00    0.00 
   5729919.00   -20.00    0.00    -45.61213    0.00    -20.00    0.00    -20.00    0.00 
   5830444.00   -20.00    0.00    -45.53515    0.00    -20.00    0.00    -20.00    0.00 
   5930969.00   -20.00    0.00    -45.45817    0.00    -20.00    0.00    -20.00    0.00 
   6031494.00   -20.00    0.00    -45.38119    0.00    -20.00    0.00    -20.00    0.00 
   6132019.00   -20.00    0.00    -45.30421    0.00    -20.00    0.00    -20.00    0.00 
   6232544.00   -20.00    0.00    -45.22723    0.00    -20.00    0.00    -20.00    0.00 
   6333069.00   -20.00    0.00    -45.15025    0.00    -20.00    0.00    -20.00    0.00 
   6433593.50   -20.00    0.00    -45.07327    0.00    -20.00    0.00    -20.00    0.00 
   6534118.50   -20.00    0.00    -44.99629    0.00    -20.00    0.00    -20.00    0.00 
   6634643.00   -20.00    0.00    -44.91931    0.00    -20.00    0.00    -20.00    0.00 
   6735168.00   -20.00    0.00    -44.84233    0.00    -20.00    0.00    -20.00    0.00 
   6835693.00   -20.00    0.00    -44.76534    0.00    -20.00    0.00    -20.00    0.00 
   6936218.50   -20.00    0.00    -44.68836    0.00    -20.00    0.00    -20.00    0.00 
   7036743.00   -20.00    0.00    -44.61138    0.00    -20.00    0.00    -20.00    0.00 
   7137268.00   -20.00    0.00    -44.53440    0.00    -20.00    0.00    -20.00    0.00 
   7237793.00   -20.00    0.00    -44.45742    0.00    -20.00    0.00    -20.00    0.00 
   7338317.50   -20.00    0.00    -44.38044    0.00    -20.00    0.00    -20.00    0.00 
   7438842.50   -20.00    0.00    -44.30346    0.00    -20.00    0.00    -20.00    0.00 
   7539367.00   -20.00    0.00    -44.22648    0.00    -20.00    0.00    -20.00    0.00 
   7639893.00   -20.00    0.00    -44.14950    0.00    -20.00    0.00    -20.00    0.00 
   7740417.50   -20.00    0.00    -44.07252    0.00    -20.00    0.00    -20.00    0.00 
   7840942.50   -20.00    0.00    -43.99554    0.00    -20.00    0.00    -20.00    0.00 
   7941467.00   -20.00    0.00    -43.91856    0.00    -20.00    0.00    -20.00    0.00 
   8041992.00   -20.00    0.00    -43.84158    0.00    -20.00    0.00    -20.00    0.00 
   8142517.00   -20.00    0.00    -43.76460    0.00    -20.00    0.00    -20.00    0.00 
   8243041.50   -20.00    0.00    -43.68762    0.00    -20.00    0.00    -20.00    0.00 
   8343566.50   -20.00    0.00    -43.61064    0.00    -20.00    0.00    -20.00    0.00 
   8444091.00   -20.00    0.00    -43.53366    0.00    -20.00    0.00    -20.00    0.00 
   8544617.00   -20.00    0.00    -43.45668    0.00    -20.00    0.00    -20.00    0.00 
   8645142.00   -20.00    0.00    -43.37970    0.00    -20.00    0.00    -20.00    0.00 
   8745666.00   -20.00    0.00    -43.30272    0.00    -20.00    0.00    -20.00    0.00 
   8846191.00   -20.00    0.00    -43.22574    0.00    -20.00    0.00    -20.00    0.00 
   8946716.00   -20.00    0.00    -43.14876    0.00    -20.00    0.00    -20.00    0.00 
   9047241.00   -20.00    0.00    -43.07178    0.00    -20.00    0.00    -20.00    0.00 
   9147766.00   -20.00    0.00    -42.99480    0.00    -20.00    0.00    -20.00    0.00 
   9248291.00   -20.00    0.00    -42.91782    0.00    -20.00    0.00    -20.00    0.00 
   9348816.00   -20.00    0.00    -42.84084    0.00    -20.00    0.00    -20.00    0.00 
   9449341.00   -20.00    0.00    -42.76386    0.00    -20.00    0.00    -20.00    0.00 
   9549866.00   -20.00    0.00    -42.68688    0.00    -20.00    0.00    -20.00    0.00 
   9650390.00   -20.00    0.00    -42.60990    0.00    -20.00    0.00    -20.00    0.00 
   9750915.00   -20.00    0.00    -42.53292    0.00    -20.00    0.00    -20.00    0.00 
   9851440.00   -20.00    0.00    -42.45594    0.00    -20.00    0.00    -20.00    0.00 
   9951965.00   -20.00    0.00    -42.37896    0.00    -20.00    0.00    -20.00    0.00 
  10052490.00   -20.00    0.00    -42.30198    0.00    -20.00    0.00    -20.00    0.00 
  10153015.00   -20.00    0.00    -42.22500    0.00    -20.00    0.00    -20.00    0.00 
  10253540.00   -20.00    0.00    -42.14802    0.00    -20.00    0.00    -20.00    0.00 
  10354065.00   -20.00    0.00    -42.07104    0.00    -20.00    0.00    -20.00    0.00 
  10454590.00   -20.00    0.00    -41.99406    0.00    -20.00    0.00    -20.00    0.00 
  10555114.00   -20.00    0.00    -41.91708    0.00    -20.00    0.00    -20.00    0.00 
  10655639.00   -20.00    0.00    -41.84010    0.00    -20.00    0.00    -20.00    0.00 
  10756164.00   -20.00    0.00    -41.76312    0.00    -20.00    0.00    -20.00    0.00 
  10856690.00   -20.00    0.00    -41.68614    0.00    -20.00    0.00    -20.00    0.00 
  10957214.00   -20.00    0.00    -41.60916    0.00    -20.00    0.00    -20.00    0.00 
  11057739.00   -20.00    0.00    -41.53218    0.00    -20.00    0.00    -20.00    0.00 
  11158264.00   -20.00    0.00    -41.45520    0.00    -20.00    0.00    -20.00    0.00 
  11258789.00   -20.00    0.00    -41.37822    0.00    -20.00    0.00    -20.00    0.00 
  11359314.00   -20.00    0.00    -41.30123    0.00    -20.00    0.00    -20.00    0.00 
  11459838.00   -20.00    0.00    -41.22425    0.00    -20.00    0.00    -20.00    0.00 
  11560363.00   -20.00    0.00    -41.14727    0.00    -20.00    0.00    -20.00    0.00 
  11660888.00   -20.00    0.00    -41.07029    0.00    -20.00    0.00    -20.00    0.00 
  11761414.00   -20.00    0.00    -40.99331    0.00    -20.00    0.00    -20.00    0.00 
  11861938.00   -20.00    0.00    -40.91633    0.00    -20.00    0.00    -20.00    0.00 
  11962463.00   -20.00    0.00    -40.83935    0.00    -20.00    0.00    -20.00    0.00 
  12062988.00   -20.00    0.00    -40.76237    0.00    -20.00    0.00    -20.00    0.00 
  12163513.00   -20.00    0.00    -40.68539    0.00    -20.00    0.00    -20.00    0.00 
  12264038.00   -20.00    0.00    -40.60841    0.00    -20.00    0.00    -20.00    0.00 
  12364562.00   -20.00    0.00    -40.53143    0.00    -20.00    0.00    -20.00    0.00 
  12465088.00   -20.00    0.00    -40.45445    0.00    -20.00    0.00    -20.00    0.00 
  12565613.00   -20.00    0.00    -40.37747    0.00    -20.00    0.00    -20.00    0.00 
  12666138.00   -20.00    0.00    -40.30049    0.00    -20.00    0.00    -20.00    0.00 
  12766662.00   -20.00    0.00    -40.22351    0.00    -20.00    0.00    -20.00    0.00 
  12867187.00   -20.00    0.00    -40.14653    0.00    -20.00    0.00    -20.00    0.00 
  12967712.00   -20.00    0.00    -40.06955    0.00    -20.00    0.00    -20.00    0.00 
  13068237.00   -20.00    0.00    -39.99257    0.00    -20.00    0.00    -20.00    0.00 
  13168762.00   -20.00    0.00    -39.91559    0.00    -20.00    0.00    -20.00    0.00 
  13269286.00   -20.00    0.00    -39.83861    0.00    -20.00    0.00    -20.00    0.00 
  13369812.00   -20.00    0.00    -39.76163    0.00    -20.00    0.00    -20.00    0.00 
  13470336.00   -20.00    0.00    -39.68465    0.00    -20.00    0.00    -20.00    0.00 
  13570861.00   -20.00    0.00    -39.60767    0.00    -20.00    0.00    -20.00    0.00 
  13671386.00   -20.00    0.00    -39.53069    0.00    -20.00    0.00    -20.00    0.00 
  13771912.00   -20.00    0.00    -39.45371    0.00    -20.00    0.00    -20.00    0.00 
  13872437.00   -20.00    0.00    -39.37673    0.00    -20.00    0.00    -20.00    0.00 
  13972962.00   -20.00    0.00    -39.29975    0.00    -20.00    0.00    -20.00    0.00 
  14073486.00   -20.00    0.00    -39.22277    0.00    -20.00    0.00    -20.00    0.00 
  14174011.00   -20.00    0.00    -39.14579    0.00    -20.00    0.00    -20.00    0.00 
  14274536.00   -20.00    0.00    -39.06881    0.00    -20.00    0.00    -20.00    0.00 
  14375061.00   -20.00    0.00    -38.99183    0.00    -20.00    0.00    -20.00    0.00 
  14475586.00   -20.00    0.00    -38.91485    0.00    -20.00    0.00    -20.00    0.00 
  14576110.00   -20.00    0.00    -38.83787    0.00    -20.00    0.00    -20.00    0.00 
  14676635.00   -20.00    0.00    -38.76089    0.00    -20.00    0.00    -20.00    0.00 
  14777160.00   -20.00    0.00    -38.68391    0.00    -20.00    0.00    -20.00    0.00 
  14877685.00   -20.00    0.00    -38.60693    0.00    -20.00    0.00    -20.00    0.00 
  14978210.00   -20.00    0.00    -38.52995    0.00    -20.00    0.00    -20.00    0.00 
  15078734.00   -20.00    0.00    -38.45297    0.00    -20.00    0.00    -20.00    0.00 
  15179259.00   -20.00    0.00    -38.37599    0.00    -20.00    0.00    -20.00    0.00 
  15279786.00   -20.00    0.00    -38.29901    0.00    -20.00    0.00    -20.00    0.00 
  15380310.00   -20.00    0.00    -38.22203    0.00    -20.00    0.00    -20.00    0.00 
  15480835.00   -20.00    0.00    -38.14505    0.00    -20.00    0.00    -20.00    0.00 
  15581360.00   -20.00    0.00    -38.06807    0.00    -20.00    0.00    -20.00    0.00 
  15681885.00   -20.00    0.00    -37.99109    0.00    -20.00    0.00    -20.00    0.00 
  15782410.00   -20.00    0.00    -37.91410    0.00    -20.00    0.00    -20.00    0.00 
  15882934.00   -20.00    0.00    -37.83712    0.00    -20.00    0.00    -20.00    0.00 
  15983459.00   -20.00    0.00    -37.76014    0.00    -20.00    0.00    -20.00    0.00 
  16083984.00   -20.00    0.00    -37.68316    0.00    -20.00    0.00    -20.00    0.00 
  16184509.00   -20.00    0.00    -37.60618    0.00    -20.00    0.00    -20.00    0.00 
  16285034.00   -20.00    0.00    -37.52920    0.00    -20.00    0.00    -20.00    0.00 
  16385558.00   -20.00    0.00    -37.45222    0.00    -20.00    0.00    -20.00    0.00 
  16486083.00   -20.00    0.00    -37.37524    0.00    -20.00    0.00    -20.00    0.00 
  16586608.00   -20.00    0.00    -37.29826    0.00    -20.00    0.00    -20.00    0.00 
  16687133.00   -20.00    0.00    -37.22128    0.00    -20.00    0.00    -20.00    0.00 
  16787658.00   -20.00    0.00    -37.14430    0.00    -20.00    0.00    -20.00    0.00 
  16888182.00   -20.00    0.00    -37.06732    0.00    -20.00    0.00    -20.00    0.00 
  16988708.00   -20.00    0.00    -36.99034    0.00    -20.00    0.00    -20.00    0.00 
  17089234.00   -20.00    0.00    -36.91336    0.00    -20.00    0.00    -20.00    0.00 
  17189758.00   -20.00    0.00    -36.83638    0.00    -20.00    0.00    -20.00    0.00 
  17290284.00   -20.00    0.00    -36.75940    0.00    -20.00    0.00    -20.00    0.00 
  17390808.00   -20.00    0.00    -36.68242    0.00    -20.00    0.00    -20.00    0.00 
  17491332.00   -20.00    0.00    -36.60544    0.00    -20.00    0.00    -20.00    0.00 
  17591858.00   -20.00    0.00    -36.52846    0.00    -20.00    0.00    -20.00    0.00 
  17692382.00   -20.00    0.00    -36.45148    0.00    -20.00    0.00    -20.00    0.00 
  17792908.00   -20.00    0.00    -36.37450    0.00    -20.00    0.00    -20.00    0.00 
  17893432.00   -20.00    0.00    -36.29752    0.00    -20.00    0.00    -20.00    0.00 
  17993956.00   -20.00    0.00    -36.22054    0.00    -20.00    0.00    -20.00    0.00 
  18094482.00   -20.00    0.00    -36.14356    0.00    -20.00    0.00    -20.00    0.00 
  18195006.00   -20.00    0.00    -36.06658    0.00    -20.00    0.00    -20.00    0.00 
  18295532.00   -20.00    0.00    -35.98960    0.00    -20.00    0.00    -20.00    0.00 
  18396056.00   -20.00    0.00    -35.91262    0.00    -20.00    0.00    -20.00    0.00 
  18496582.00   -20.00    0.00    -35.83564    0.00    -20.00    0.00    -20.00    0.00 
  18597108.00   -20.00    0.00    -35.75866    0.00    -20.00    0.00    -20.00    0.00 
  18697632.00   -20.00    0.00    -35.68168    0.00    -20.00    0.00    -20.00    0.00 
  18798156.00   -20.00    0.00    -35.60470    0.00    -20.00    0.00    -20.00    0.00 
  18898682.00   -20.00    0.00    -35.52772    0.00    -20.00    0.00    -20.00    0.00 
  18999206.00   -20.00    0.00    -35.45074    0.00    -20.00    0.00    -20.00    0.00 
  19099732.00   -20.00    0.00    -35.37376    0.00    -20.00    0.00    -20.00    0.00 
  19200256.00   -20.00    0.00    -35.29678    0.00    -20.00    0.00    -20.00    0.00 
  19300780.00   -20.00    0.00    -35.21980    0.00    -20.00    0.00    -20.00    0.00 
  19401306.00   -20.00    0.00    -35.14282    0.00    -20.00    0.00    -20.00    0.00 
  19501830.00   -20.00    0.00    -35.06584    0.00    -20.00    0.00    -20.00    0.00 
  19602356.00   -20.00    0.00    -34.98886    0.00    -20.00    0.00    -20.00    0.00 
  19702880.00   -20.00    0.00    -34.91188    0.00    -20.00    0.00    -20.00    0.00 
  19803404.00   -20.00    0.00    -34.83490    0.00    -20.00    0.00    -20.00    0.00 
  19903930.00   -20.00    0.00    -34.75792    0.00    -20.00    0.00    -20.00    0.00 
  20004454.00   -20.00    0.00    -34.68094    0.00    -20.00    0.00    -20.00    0.00 
  20104980.00   -20.00    0.00    -34.60396    0.00    -20.00    0.00    -20.00    0.00 
  20205506.00   -20.00    0.00    -34.52698    0.00    -20.00    0.00    -20.00    0.00 
  20306030.00   -20.00    0.00    -34.44999    0.00    -20.00    0.00    -20.00    0.00 
  20406556.00   -20.00    0.00    -34.37301    0.00    -20.00    0.00    -20.00    0.00 
  20507080.00   -20.00    0.00    -34.29603    0.00    -20.00    0.00    -20.00    0.00 
  20607604.00   -20.00    0.00    -34.21905    0.00    -20.00    0.00    -20.00    0.00 
  20708130.00   -20.00    0.00    -34.14207    0.00    -20.00    0.00    -20.00    0.00 
  20808654.00   -20.00    0.00    -34.06509    0.00    -20.00    0.00    -20.00    0.00 
  20909180.00   -20.00    0.00    -33.98811    0.00    -20.00    0.00    -20.00    0.00 
  21009704.00   -20.00    0.00    -33.91113    0.00    -20.00    0.00    -20.00    0.00 
  21110228.00   -20.00    0.00    -33.83415    0.00    -20.00    0.00    -20.00    0.00 
  21210754.00   -20.00    0.00    -33.75717    0.00    -20.00    0.00    -20.00    0.00 
  21311278.00   -20.00    0.00    -33.68019    0.00    -20.00    0.00    -20.00    0.00 
  21411804.00   -20.00    0.00    -33.60321    0.00    -20.00    0.00    -20.00    0.00 
  21512328.00   -20.00    0.00    -33.52623    0.00    -20.00    0.00    -20.00    0.00 
  21612852.00   -20.00    0.00    -33.44925    0.00    -20.00    0.00    -20.00    0.00 
  21713380.00   -20.00    0.00    -33.37227    0.00    -20.00    0.00    -20.00    0.00 
  21813904.00   -20.00    0.00    -33.29529    0.00    -20.00    0.00    -20.00    0.00 
  21914428.00   -20.00    0.00    -33.21831    0.00    -20.00    0.00    -20.00    0.00 
  22014954.00   -20.00    0.00    -33.14133    0.00    -20.00    0.00    -20.00    0.00 
  22115478.00   -20.00    0.00    -33.06435    0.00    -20.00    0.00    -20.00    0.00 
  22216004.00   -20.00    0.00    -32.98737    0.00    -20.00    0.00    -20.00    0.00 
